
**** 12/25/22 06:22:57 ****** PSpice Lite (October 2012) ****** ID# 10813 ****

 ** Profile: "SCHEMATIC1-sim5"  [ E:\study\lab4-ahmed\lab4-ahmed\lab4-ahmed-pspicefiles\schematic1\sim5.sim ] 


 ****     CIRCUIT DESCRIPTION


******************************************************************************




** Creating circuit file "sim5.cir" 
** WARNING: THIS AUTOMATICALLY GENERATED FILE MAY BE OVERWRITTEN BY SUBSEQUENT SIMULATIONS

*Libraries: 
* Profile Libraries :
* Local Libraries :
.LIB "../../../lab4-ahmed-pspicefiles/lab4-ahmed.lib" 
* From [PSPICE NETLIST] section of C:\Users\engmo\cdssetup\OrCAD_PSpice/16.6.0/PSpice.ini file:
.lib "nomd.lib" 

*Analysis directives: 
.AC LIN 1000 10Hz 10Ghz
.STEP NPN QbreakN(VA) LIST 20,1000 
.OPTIONS ADVCONV
.PROBE64 V(alias(*)) I(alias(*)) W(alias(*)) D(alias(*)) NOISE(alias(*)) 
.INC "..\SCHEMATIC1.net" 



**** INCLUDING SCHEMATIC1.net ****
* source LAB4-AHMED
Q_Q2         N00585 N00559 0 Qbreakn 
R_R1         N00559 N00566  150K TC=0,0 
R_R2         0 N00559  10K TC=0,0 
R_R3         N00585 N00566  4.7K TC=0,0 
R_R4         0 N00610  10K TC=0,0 
C_C1         N00555 N00559  1u  TC=0,0 
C_C2         N00585 N00610  1u  TC=0,0 
V_V1         N00566 0 10V
V_V2         N00555 0 DC 0Vdc AC 0.01V 

**** RESUMING sim5.cir ****
.END

WARNING(ORPSIM-15223): Library file E:\study\lab4-ahmed\lab4-ahmed\lab4-ahmed-pspicefiles\lab4-ahmed.lib has changed since index file lab4-ahmed.ind was created.

WARNING(ORPSIM-15227): The timestamp changed from Sun Dec 25 06:22:11 2022 to Sun Dec 25 06:22:54 2022.

INFO(ORPSIM-15422): Making new index file lab4-ahmed.ind for library file lab4-ahmed.lib.

Index has 1 entries from 1 file(s).

**** 12/25/22 06:22:57 ****** PSpice Lite (October 2012) ****** ID# 10813 ****

 ** Profile: "SCHEMATIC1-sim5"  [ E:\study\lab4-ahmed\lab4-ahmed\lab4-ahmed-pspicefiles\schematic1\sim5.sim ] 


 ****     BJT MODEL PARAMETERS


******************************************************************************




               QbreakN         
               NPN             
       LEVEL    1            
          IS    1.000000E-12 
          BF  200            
          NF    1            
          BR    1            
          NR    1            
         ISS    0            
          RE    0            
          RC    0            
         CJE    0            
         VJE     .75         
         CJC    0            
         VJC     .75         
         MJC     .33         
        XCJC    1            
         CJS    0            
         VJS     .75         
          KF    0            
          AF    1            
          CN    2.42         
           D     .87         


**** 12/25/22 06:22:57 ****** PSpice Lite (October 2012) ****** ID# 10813 ****

 ** Profile: "SCHEMATIC1-sim5"  [ E:\study\lab4-ahmed\lab4-ahmed\lab4-ahmed-pspicefiles\schematic1\sim5.sim ] 


 ****     SMALL SIGNAL BIAS SOLUTION       TEMPERATURE =   27.000 DEG C

 ****     CURRENT STEP                     QBREAKN VAF =   20    


******************************************************************************



 NODE   VOLTAGE     NODE   VOLTAGE     NODE   VOLTAGE     NODE   VOLTAGE


(N00555)    0.0000 (N00559)     .5486 (N00566)   10.0000 (N00585)    1.8451     

(N00610)    0.0000 




    VOLTAGE SOURCE CURRENTS
    NAME         CURRENT

    V_V1        -1.798E-03
    V_V2         0.000E+00

    TOTAL POWER DISSIPATION   1.80E-02  WATTS


**** 12/25/22 06:22:57 ****** PSpice Lite (October 2012) ****** ID# 10813 ****

 ** Profile: "SCHEMATIC1-sim5"  [ E:\study\lab4-ahmed\lab4-ahmed\lab4-ahmed-pspicefiles\schematic1\sim5.sim ] 


 ****     SMALL SIGNAL BIAS SOLUTION       TEMPERATURE =   27.000 DEG C

 ****     CURRENT STEP                     QBREAKN VAF =    1.0000E+03


******************************************************************************



 NODE   VOLTAGE     NODE   VOLTAGE     NODE   VOLTAGE     NODE   VOLTAGE


(N00555)    0.0000 (N00559)     .5486 (N00566)   10.0000 (N00585)    2.3279     

(N00610)    0.0000 




    VOLTAGE SOURCE CURRENTS
    NAME         CURRENT

    V_V1        -1.695E-03
    V_V2         0.000E+00

    TOTAL POWER DISSIPATION   1.70E-02  WATTS



          JOB CONCLUDED

**** 12/25/22 06:22:57 ****** PSpice Lite (October 2012) ****** ID# 10813 ****

 ** Profile: "SCHEMATIC1-sim5"  [ E:\study\lab4-ahmed\lab4-ahmed\lab4-ahmed-pspicefiles\schematic1\sim5.sim ] 


 ****     JOB STATISTICS SUMMARY

 ****     CURRENT STEP                     QBREAKN VAF =    1.0000E+03


******************************************************************************



  Total job time (using Solver 1)   =         .09
